T265C 551:466 SEGGER J-Link V6.46 Log File (0000ms, 1210ms total)
T265C 551:466 DLL Compiled: May 23 2019 17:49:56 (0000ms, 1210ms total)
T265C 551:466 Logging started @ 2022-08-29 09:39 (0000ms, 1210ms total)
T265C 551:466 JLINK_SetWarnOutHandler(...) (0000ms, 1210ms total)
T265C 551:466 JLINK_OpenEx(...)
Firmware: J-Link V9 compiled Dec 13 2019 11:14:50
Hardware: V9.60
S/N: 69603471
Feature(s): GDB, RDI, FlashBP, FlashDL, JFlash
TELNET listener socket opened on port 19021Device "CORTEX-M0" selected.WEBSRV 
Starting webserver (0037ms, 1247ms total)
T265C 551:466 WEBSRV Webserver running on local port 19080 (0038ms, 1248ms total)
T265C 551:466   returns O.K. (0038ms, 1248ms total)
T265C 551:504 JLINK_GetEmuCaps()  returns 0xB9FF7BBF (0000ms, 1248ms total)
T265C 551:504 JLINK_TIF_GetAvailable(...) (0000ms, 1248ms total)
T265C 551:504 JLINK_SetErrorOutHandler(...) (0000ms, 1248ms total)
T265C 551:504 JLINK_ExecCommand("ProjectFile = "E:\Projects\Ñî´¨\ÁªÑ¶·¢\3_821008\821008__Source_Code\KEIL_MDK\JLinkSettings.ini"", ...). Device "CORTEX-M0" selected.  returns 0x00 (0003ms, 1251ms total)
T265C 551:509 JLINK_ExecCommand("Device = CS32L010F6", ...). Device "CORTEX-M0" selected.  returns 0x00 (0002ms, 1253ms total)
T265C 551:511 JLINK_ExecCommand("DisableConnectionTimeout", ...).   returns 0x01 (0000ms, 1253ms total)
T265C 551:511 JLINK_GetHardwareVersion()  returns 0x17700 (0000ms, 1253ms total)
T265C 551:511 JLINK_GetDLLVersion()  returns 64600 (0000ms, 1253ms total)
T265C 551:511 JLINK_GetFirmwareString(...) (0000ms, 1253ms total)
T265C 551:516 JLINK_GetDLLVersion()  returns 64600 (0000ms, 1253ms total)
T265C 551:516 JLINK_GetCompileDateTime() (0000ms, 1253ms total)
T265C 551:518 JLINK_GetFirmwareString(...) (0000ms, 1253ms total)
T265C 551:519 JLINK_GetHardwareVersion()  returns 0x17700 (0000ms, 1253ms total)
T265C 551:526 JLINK_TIF_Select(JLINKARM_TIF_SWD)  returns 0x00 (0002ms, 1255ms total)
T265C 551:528 JLINK_SetSpeed(50000) (0000ms, 1255ms total)
T265C 551:528 JLINK_GetId() >0x10B TIF>Found SW-DP with ID 0x0BC11477 >0x0D TIF> >0x28 TIF> >0x0D TIF> >0x28 TIF> >0x0D TIF> >0x28 TIF> >0x0D TIF> >0x28 TIF> >0x0D TIF> >0x21 TIF> >0x0D TIF> >0x28 TIF>Scanning AP map to find all available APs >0x0D TIF> >0x28 TIF> >0x0D TIF> >0x21 TIF> >0x0D TIF> >0x21 TIF> >0x0D TIF> >0x28 TIF> >0x0D TIF> >0x21 TIF> >0x0D TIF> >0x21 TIF>AP[1]: Stopped AP scan as end of AP map has been reachedAP[0]: AHB-AP (IDR: 0x04770031)Iterating through AP map to find AHB-AP to use
 >0x42 TIF> >0x28 TIF> >0x0D TIF> >0x28 TIF> >0x0D TIF> >0x21 TIF> >0x0D TIF> >0x21 TIF> >0x42 TIF> >0x28 TIF> >0x0D TIF> >0x28 TIF> >0x0D TIF> >0x28 TIF> >0x0D TIF> >0x21 TIF> >0x0D TIF> >0x21 TIF>AP[0]: Core foundAP[0]: AHB-AP ROM base: 0xE00FF000 >0x0D TIF> >0x28 TIF> >0x0D TIF> >0x28 TIF> >0x0D TIF> >0x28 TIF> >0x0D TIF> >0x21 TIF> >0x0D TIF> >0x21 TIF>CPUID register: 0x410CC601. Implementer code: 0x41 (ARM)Found Cortex-M0 r0p1, Little endian. -- Max. mem block: 0x00010D88
 -- CPU_ReadMem(4 bytes @ 0xE000EDF0) -- CPU_WriteMem(4 bytes @ 0xE000EDF0) -- CPU_ReadMem(4 bytes @ 0xE0002000)FPUnit: 4 code (BP) slots and 0 literal slots -- CPU_ReadMem(4 bytes @ 0xE000EDFC) -- CPU_WriteMem(4 bytes @ 0xE000EDFC) -- CPU_ReadMem(4 bytes @ 0xE0001000) -- CPU_WriteMem(4 bytes @ 0xE0001000)CoreSight components:ROMTbl[0] @ E00FF000 -- CPU_ReadMem(16 bytes @ 0xE00FF000) -- CPU_ReadMem(16 bytes @ 0xE000EFF0) -- CPU_ReadMem(16 bytes @ 0xE000EFE0)
ROMTbl[0][0]: E000E000, CID: B105E00D, PID: 000BB008 SCS -- CPU_ReadMem(16 bytes @ 0xE0001FF0) -- CPU_ReadMem(16 bytes @ 0xE0001FE0)ROMTbl[0][1]: E0001000, CID: B105E00D, PID: 000BB00A DWT -- CPU_ReadMem(16 bytes @ 0xE0002FF0) -- CPU_ReadMem(16 bytes @ 0xE0002FE0)ROMTbl[0][2]: E0002000, CID: B105E00D, PID: 000BB00B FPB >0x0D TIF> >0x21 TIF>  returns 0x0BC11477 (0147ms, 1402ms total)
T265C 551:675 JLINK_GetDLLVersion()  returns 64600 (0000ms, 1402ms total)
T265C 551:675 JLINK_CORE_GetFound()  returns 0x60000FF (0000ms, 1402ms total)
T265C 551:675 JLINK_GetDebugInfo(0x100 = JLINKARM_ROM_TABLE_ADDR_INDEX) -- Value=0xE00FF000  returns 0x00 (0000ms, 1402ms total)
T265C 551:676 JLINK_GetDebugInfo(0x100 = JLINKARM_ROM_TABLE_ADDR_INDEX) -- Value=0xE00FF000  returns 0x00 (0000ms, 1402ms total)
T265C 551:676 JLINK_GetDebugInfo(0x101 = JLINKARM_DEBUG_INFO_ETM_ADDR_INDEX) -- Value=0x00000000  returns 0x00 (0000ms, 1402ms total)
T265C 551:676 JLINK_ReadMemEx(0xE0041FF0, 0x0010 Bytes, ..., Flags = 0x02000004) -- CPU_ReadMem(16 bytes @ 0xE0041FF0) - Data: 00 00 00 00 00 00 00 00 00 00 00 00 00 00 00 00  returns 0x10 (0001ms, 1403ms total)
T265C 551:677 JLINK_GetDebugInfo(0x102 = JLINKARM_DEBUG_INFO_MTB_ADDR_INDEX) -- Value=0x00000000  returns 0x00 (0000ms, 1403ms total)
T265C 551:677 JLINK_GetDebugInfo(0x103 = JLINKARM_DEBUG_INFO_TPIU_ADDR_INDEX) -- Value=0x00000000  returns 0x00 (0000ms, 1403ms total)
T265C 551:677 JLINK_ReadMemEx(0xE0040FF0, 0x0010 Bytes, ..., Flags = 0x02000004) -- CPU_ReadMem(16 bytes @ 0xE0040FF0) - Data: 00 00 00 00 00 00 00 00 00 00 00 00 00 00 00 00  returns 0x10 (0000ms, 1403ms total)
T265C 551:677 JLINK_GetDebugInfo(0x104 = JLINKARM_DEBUG_INFO_ITM_ADDR_INDEX) -- Value=0xE0000000  returns 0x00 (0000ms, 1403ms total)
T265C 551:677 JLINK_GetDebugInfo(0x105 = JLINKARM_DEBUG_INFO_DWT_ADDR_INDEX) -- Value=0xE0001000  returns 0x00 (0000ms, 1403ms total)
T265C 551:677 JLINK_GetDebugInfo(0x106 = JLINKARM_DEBUG_INFO_FPB_ADDR_INDEX) -- Value=0xE0002000  returns 0x00 (0000ms, 1403ms total)
T265C 551:677 JLINK_GetDebugInfo(0x107 = JLINKARM_DEBUG_INFO_NVIC_ADDR_INDEX) -- Value=0xE000E000  returns 0x00 (0000ms, 1403ms total)
T265C 551:677 JLINK_GetDebugInfo(0x10C = JLINKARM_DEBUG_INFO_DBG_ADDR_INDEX) -- Value=0xE000EDF0  returns 0x00 (0000ms, 1403ms total)
T265C 551:677 JLINK_GetDebugInfo(0x01 = Unknown) -- Value=0x00000000  returns 0x00 (0000ms, 1403ms total)
T265C 551:677 JLINK_ReadMemU32(0xE000ED00, 0x0001 Items, ...) -- CPU_ReadMem(4 bytes @ 0xE000ED00) - Data: 01 C6 0C 41  returns 1 (0000ms, 1403ms total)
T265C 551:677 JLINK_GetDebugInfo(0x10F = JLINKARM_DEBUG_INFO_HAS_CORTEX_M_SECURITY_EXT_INDEX) -- Value=0x00000000  returns 0x00 (0000ms, 1403ms total)
T265C 551:677 JLINK_SetResetType(JLINKARM_CM3_RESET_TYPE_NORMAL)  returns JLINKARM_CM3_RESET_TYPE_NORMAL (0000ms, 1403ms total)
T265C 551:677 JLINK_Reset() -- CPU is running -- CPU_WriteMem(4 bytes @ 0xE000EDF0) -- CPU is running -- CPU_WriteMem(4 bytes @ 0xE000EDFC)Reset: Halt core after reset via DEMCR.VC_CORERESET. >0x35 TIF>Reset: Reset device via AIRCR.SYSRESETREQ. -- CPU is running -- CPU_WriteMem(4 bytes @ 0xE000ED0C) >0x0D TIF> >0x28 TIF> -- CPU_ReadMem(4 bytes @ 0xE000EDF0) -- CPU_ReadMem(4 bytes @ 0xE000EDF0) -- CPU is running -- CPU_WriteMem(4 bytes @ 0xE000EDF0) -- CPU is running -- CPU_WriteMem(4 bytes @ 0xE000EDFC)
 -- CPU_ReadMem(4 bytes @ 0xE000EDF0) -- CPU_WriteMem(4 bytes @ 0xE0002000) -- CPU_ReadMem(4 bytes @ 0xE000EDFC) -- CPU_ReadMem(4 bytes @ 0xE0001000) -- CPU_WriteMem(4 bytes @ 0xE0001000) (0067ms, 1470ms total)
T265C 551:744 JLINK_Halt()  returns 0x00 (0000ms, 1470ms total)
T265C 551:744 JLINK_ReadMemU32(0xE000EDF0, 0x0001 Items, ...) -- CPU_ReadMem(4 bytes @ 0xE000EDF0) - Data: 03 00 03 00  returns 1 (0001ms, 1471ms total)
T265C 551:745 JLINK_WriteU32(0xE000EDF0, 0xA05F0003) -- CPU_WriteMem(4 bytes @ 0xE000EDF0)  returns 0 (0000ms, 1471ms total)
T265C 551:745 JLINK_WriteU32(0xE000EDFC, 0x01000000) -- CPU_WriteMem(4 bytes @ 0xE000EDFC)  returns 0 (0000ms, 1471ms total)
T265C 551:751 JLINK_GetHWStatus(...)  returns 0x00 (0002ms, 1473ms total)
T265C 551:758 JLINK_GetNumBPUnits(Type = 0xFFFFFF00)  returns 0x04 (0000ms, 1473ms total)
T265C 551:758 JLINK_GetNumBPUnits(Type = 0xF0)  returns 0x2000 (0000ms, 1473ms total)
T265C 551:758 JLINK_GetNumWPUnits()  returns 0x02 (0000ms, 1473ms total)
T265C 551:762 JLINK_GetSpeed()  returns 0x2EE0 (0000ms, 1473ms total)
T265C 551:764 JLINK_ReadMemU32(0xE000E004, 0x0001 Items, ...) -- CPU_ReadMem(4 bytes @ 0xE000E004) - Data: 00 00 00 00  returns 1 (0002ms, 1475ms total)
T265C 551:766 JLINK_Halt()  returns 0x00 (0000ms, 1475ms total)
T265C 551:766 JLINK_IsHalted()  returns TRUE (0000ms, 1475ms total)
T265C 551:768 JLINK_WriteMem(0x20000000, 0x038C Bytes, ...) - Data: 00 BE 0A E0 0D 78 2D 06 68 40 08 24 40 00 00 D3 ... -- CPU_WriteMem(908 bytes @ 0x20000000)  returns 0x38C (0003ms, 1478ms total)
T265C 551:771 JLINK_WriteReg(R0, 0x00000000)  returns 0x00 (0000ms, 1478ms total)
T265C 551:771 JLINK_WriteReg(R1, 0x00B71B00)  returns 0x00 (0000ms, 1478ms total)
T265C 551:771 JLINK_WriteReg(R2, 0x00000001)  returns 0x00 (0000ms, 1478ms total)
T265C 551:771 JLINK_WriteReg(R3, 0x00000000)  returns 0x00 (0000ms, 1478ms total)
T265C 551:771 JLINK_WriteReg(R4, 0x00000000)  returns 0x00 (0000ms, 1478ms total)
T265C 551:771 JLINK_WriteReg(R5, 0x00000000)  returns 0x00 (0000ms, 1478ms total)
T265C 551:771 JLINK_WriteReg(R6, 0x00000000)  returns 0x00 (0000ms, 1478ms total)
T265C 551:771 JLINK_WriteReg(R7, 0x00000000)  returns 0x00 (0000ms, 1478ms total)
T265C 551:771 JLINK_WriteReg(R8, 0x00000000)  returns 0x00 (0000ms, 1478ms total)
T265C 551:771 JLINK_WriteReg(R9, 0x20000388)  returns 0x00 (0000ms, 1478ms total)
T265C 551:771 JLINK_WriteReg(R10, 0x00000000)  returns 0x00 (0000ms, 1478ms total)
T265C 551:771 JLINK_WriteReg(R11, 0x00000000)  returns 0x00 (0000ms, 1478ms total)
T265C 551:771 JLINK_WriteReg(R12, 0x00000000)  returns 0x00 (0000ms, 1478ms total)
T265C 551:771 JLINK_WriteReg(R13 (SP), 0x20001000)  returns 0x00 (0000ms, 1478ms total)
T265C 551:771 JLINK_WriteReg(R14, 0x20000001)  returns 0x00 (0000ms, 1478ms total)
T265C 551:771 JLINK_WriteReg(R15 (PC), 0x20000038)  returns 0x00 (0000ms, 1478ms total)
T265C 551:771 JLINK_WriteReg(XPSR, 0x01000000)  returns 0x00 (0000ms, 1478ms total)
T265C 551:771 JLINK_WriteReg(MSP, 0x20001000)  returns 0x00 (0000ms, 1478ms total)
T265C 551:771 JLINK_WriteReg(PSP, 0x20001000)  returns 0x00 (0000ms, 1478ms total)
T265C 551:771 JLINK_WriteReg(CFBP, 0x00000000)  returns 0x00 (0000ms, 1478ms total)
T265C 551:771 JLINK_SetBPEx(Addr = 0x20000000, Type = 0xFFFFFFF2) -- CPU_ReadMem(4 bytes @ 0x20000000) -- CPU_WriteMem(4 bytes @ 0x20000000) -- CPU_ReadMem(4 bytes @ 0x20000000) -- CPU_WriteMem(4 bytes @ 0x20000000) -- CPU_ReadMem(2 bytes @ 0x20000000)  returns 0x00000001 (0002ms, 1480ms total)
T265C 551:773 JLINK_Go() -- CPU_WriteMem(2 bytes @ 0x20000000) -- CPU_ReadMem(4 bytes @ 0xE0001000) -- CPU_WriteMem(4 bytes @ 0xE0001000) -- CPU_WriteMem(4 bytes @ 0xE0002008) -- CPU_WriteMem(4 bytes @ 0xE000200C) -- CPU_WriteMem(4 bytes @ 0xE0002010) -- CPU_WriteMem(4 bytes @ 0xE0002014) -- CPU_WriteMem(4 bytes @ 0xE0001004) (0003ms, 1483ms total)
T265C 551:776 JLINK_IsHalted() -- CPU_ReadMem(2 bytes @ 0x20000000)  returns TRUE (0001ms, 1484ms total)
T265C 551:777 JLINK_ReadReg(R15 (PC))  returns 0x20000000 (0000ms, 1483ms total)
T265C 551:777 JLINK_ClrBPEx(BPHandle = 0x00000001)  returns 0x00 (0000ms, 1483ms total)
T265C 551:777 JLINK_ReadReg(R0)  returns 0x00000000 (0000ms, 1483ms total)
T265C 551:777 JLINK_WriteReg(R0, 0x00000000)  returns 0x00 (0000ms, 1483ms total)
T265C 551:777 JLINK_WriteReg(R1, 0x00000200)  returns 0x00 (0000ms, 1483ms total)
T265C 551:777 JLINK_WriteReg(R2, 0x000000FF)  returns 0x00 (0000ms, 1483ms total)
T265C 551:777 JLINK_WriteReg(R3, 0x00000000)  returns 0x00 (0000ms, 1483ms total)
T265C 551:777 JLINK_WriteReg(R4, 0x00000000)  returns 0x00 (0000ms, 1483ms total)
T265C 551:777 JLINK_WriteReg(R5, 0x00000000)  returns 0x00 (0000ms, 1483ms total)
T265C 551:777 JLINK_WriteReg(R6, 0x00000000)  returns 0x00 (0001ms, 1484ms total)
T265C 551:778 JLINK_WriteReg(R7, 0x00000000)  returns 0x00 (0000ms, 1484ms total)
T265C 551:778 JLINK_WriteReg(R8, 0x00000000)  returns 0x00 (0000ms, 1484ms total)
T265C 551:778 JLINK_WriteReg(R9, 0x20000388)  returns 0x00 (0000ms, 1484ms total)
T265C 551:778 JLINK_WriteReg(R10, 0x00000000)  returns 0x00 (0000ms, 1484ms total)
T265C 551:778 JLINK_WriteReg(R11, 0x00000000)  returns 0x00 (0000ms, 1484ms total)
T265C 551:778 JLINK_WriteReg(R12, 0x00000000)  returns 0x00 (0000ms, 1484ms total)
T265C 551:778 JLINK_WriteReg(R13 (SP), 0x20001000)  returns 0x00 (0000ms, 1484ms total)
T265C 551:778 JLINK_WriteReg(R14, 0x20000001)  returns 0x00 (0000ms, 1484ms total)
T265C 551:778 JLINK_WriteReg(R15 (PC), 0x20000020)  returns 0x00 (0000ms, 1484ms total)
T265C 551:778 JLINK_WriteReg(XPSR, 0x01000000)  returns 0x00 (0000ms, 1484ms total)
T265C 551:778 JLINK_WriteReg(MSP, 0x20001000)  returns 0x00 (0000ms, 1484ms total)
T265C 551:778 JLINK_WriteReg(PSP, 0x20001000)  returns 0x00 (0000ms, 1484ms total)
T265C 551:778 JLINK_WriteReg(CFBP, 0x00000000)  returns 0x00 (0000ms, 1484ms total)
T265C 551:778 JLINK_SetBPEx(Addr = 0x20000000, Type = 0xFFFFFFF2)  returns 0x00000002 (0000ms, 1484ms total)
T265C 551:778 JLINK_Go() -- CPU_ReadMem(4 bytes @ 0xE0001000) -- CPU_WriteMem(4 bytes @ 0xE0001000) (0002ms, 1486ms total)
T265C 551:780 JLINK_IsHalted() -- CPU_ReadMem(2 bytes @ 0x20000000)  returns TRUE (0002ms, 1488ms total)
T265C 551:782 JLINK_ReadReg(R15 (PC))  returns 0x20000000 (0000ms, 1486ms total)
T265C 551:782 JLINK_ClrBPEx(BPHandle = 0x00000002)  returns 0x00 (0000ms, 1486ms total)
T265C 551:782 JLINK_ReadReg(R0)  returns 0x00000001 (0000ms, 1486ms total)
T265C 551:782 JLINK_WriteReg(R0, 0x00000000)  returns 0x00 (0000ms, 1486ms total)
T265C 551:782 JLINK_WriteReg(R1, 0x00000200)  returns 0x00 (0000ms, 1486ms total)
T265C 551:782 JLINK_WriteReg(R2, 0x000000FF)  returns 0x00 (0000ms, 1486ms total)
T265C 551:782 JLINK_WriteReg(R3, 0x00000000)  returns 0x00 (0000ms, 1486ms total)
T265C 551:782 JLINK_WriteReg(R4, 0x00000000)  returns 0x00 (0000ms, 1486ms total)
T265C 551:782 JLINK_WriteReg(R5, 0x00000000)  returns 0x00 (0000ms, 1486ms total)
T265C 551:782 JLINK_WriteReg(R6, 0x00000000)  returns 0x00 (0000ms, 1486ms total)
T265C 551:782 JLINK_WriteReg(R7, 0x00000000)  returns 0x00 (0000ms, 1486ms total)
T265C 551:782 JLINK_WriteReg(R8, 0x00000000)  returns 0x00 (0000ms, 1486ms total)
T265C 551:782 JLINK_WriteReg(R9, 0x20000388)  returns 0x00 (0000ms, 1486ms total)
T265C 551:782 JLINK_WriteReg(R10, 0x00000000)  returns 0x00 (0000ms, 1486ms total)
T265C 551:782 JLINK_WriteReg(R11, 0x00000000)  returns 0x00 (0000ms, 1486ms total)
T265C 551:782 JLINK_WriteReg(R12, 0x00000000)  returns 0x00 (0000ms, 1486ms total)
T265C 551:782 JLINK_WriteReg(R13 (SP), 0x20001000)  returns 0x00 (0000ms, 1486ms total)
T265C 551:782 JLINK_WriteReg(R14, 0x20000001)  returns 0x00 (0000ms, 1486ms total)
T265C 551:782 JLINK_WriteReg(R15 (PC), 0x2000011C)  returns 0x00 (0000ms, 1486ms total)
T265C 551:782 JLINK_WriteReg(XPSR, 0x01000000)  returns 0x00 (0000ms, 1486ms total)
T265C 551:782 JLINK_WriteReg(MSP, 0x20001000)  returns 0x00 (0000ms, 1486ms total)
T265C 551:782 JLINK_WriteReg(PSP, 0x20001000)  returns 0x00 (0000ms, 1486ms total)
T265C 551:782 JLINK_WriteReg(CFBP, 0x00000000)  returns 0x00 (0000ms, 1486ms total)
T265C 551:782 JLINK_SetBPEx(Addr = 0x20000000, Type = 0xFFFFFFF2)  returns 0x00000003 (0000ms, 1486ms total)
T265C 551:782 JLINK_Go() -- CPU_ReadMem(4 bytes @ 0xE0001000) -- CPU_WriteMem(4 bytes @ 0xE0001000) (0002ms, 1488ms total)
T265C 551:784 JLINK_IsHalted()  returns FALSE (0000ms, 1488ms total)
T265C 551:823 JLINK_IsHalted() -- CPU_ReadMem(2 bytes @ 0x20000000)  returns TRUE (0002ms, 1490ms total)
T265C 551:825 JLINK_ReadReg(R15 (PC))  returns 0x20000000 (0000ms, 1488ms total)
T265C 551:825 JLINK_ClrBPEx(BPHandle = 0x00000003)  returns 0x00 (0000ms, 1488ms total)
T265C 551:825 JLINK_ReadReg(R0)  returns 0x00000000 (0000ms, 1488ms total)
T265C 551:825 JLINK_WriteReg(R0, 0x00000200)  returns 0x00 (0000ms, 1488ms total)
T265C 551:825 JLINK_WriteReg(R1, 0x00000200)  returns 0x00 (0000ms, 1488ms total)
T265C 551:825 JLINK_WriteReg(R2, 0x000000FF)  returns 0x00 (0000ms, 1488ms total)
T265C 551:825 JLINK_WriteReg(R3, 0x00000000)  returns 0x00 (0000ms, 1488ms total)
T265C 551:825 JLINK_WriteReg(R4, 0x00000000)  returns 0x00 (0000ms, 1488ms total)
T265C 551:825 JLINK_WriteReg(R5, 0x00000000)  returns 0x00 (0000ms, 1488ms total)
T265C 551:825 JLINK_WriteReg(R6, 0x00000000)  returns 0x00 (0000ms, 1488ms total)
T265C 551:825 JLINK_WriteReg(R7, 0x00000000)  returns 0x00 (0000ms, 1488ms total)
T265C 551:825 JLINK_WriteReg(R8, 0x00000000)  returns 0x00 (0000ms, 1488ms total)
T265C 551:825 JLINK_WriteReg(R9, 0x20000388)  returns 0x00 (0000ms, 1488ms total)
T265C 551:825 JLINK_WriteReg(R10, 0x00000000)  returns 0x00 (0000ms, 1488ms total)
T265C 551:825 JLINK_WriteReg(R11, 0x00000000)  returns 0x00 (0000ms, 1488ms total)
T265C 551:825 JLINK_WriteReg(R12, 0x00000000)  returns 0x00 (0000ms, 1488ms total)
T265C 551:825 JLINK_WriteReg(R13 (SP), 0x20001000)  returns 0x00 (0000ms, 1488ms total)
T265C 551:825 JLINK_WriteReg(R14, 0x20000001)  returns 0x00 (0000ms, 1488ms total)
T265C 551:825 JLINK_WriteReg(R15 (PC), 0x20000020)  returns 0x00 (0000ms, 1488ms total)
T265C 551:825 JLINK_WriteReg(XPSR, 0x01000000)  returns 0x00 (0000ms, 1488ms total)
T265C 551:825 JLINK_WriteReg(MSP, 0x20001000)  returns 0x00 (0000ms, 1488ms total)
T265C 551:825 JLINK_WriteReg(PSP, 0x20001000)  returns 0x00 (0000ms, 1488ms total)
T265C 551:825 JLINK_WriteReg(CFBP, 0x00000000)  returns 0x00 (0000ms, 1488ms total)
T265C 551:825 JLINK_SetBPEx(Addr = 0x20000000, Type = 0xFFFFFFF2)  returns 0x00000004 (0000ms, 1488ms total)
T265C 551:825 JLINK_Go() -- CPU_ReadMem(4 bytes @ 0xE0001000) -- CPU_WriteMem(4 bytes @ 0xE0001000) (0002ms, 1490ms total)
T265C 551:827 JLINK_IsHalted() -- CPU_ReadMem(2 bytes @ 0x20000000)  returns TRUE (0001ms, 1491ms total)
T265C 551:828 JLINK_ReadReg(R15 (PC))  returns 0x20000000 (0000ms, 1490ms total)
T265C 551:828 JLINK_ClrBPEx(BPHandle = 0x00000004)  returns 0x00 (0000ms, 1490ms total)
T265C 551:828 JLINK_ReadReg(R0)  returns 0x00000001 (0000ms, 1490ms total)
T265C 551:828 JLINK_WriteReg(R0, 0x00000200)  returns 0x00 (0001ms, 1491ms total)
T265C 551:829 JLINK_WriteReg(R1, 0x00000200)  returns 0x00 (0000ms, 1491ms total)
T265C 551:829 JLINK_WriteReg(R2, 0x000000FF)  returns 0x00 (0000ms, 1491ms total)
T265C 551:829 JLINK_WriteReg(R3, 0x00000000)  returns 0x00 (0000ms, 1491ms total)
T265C 551:829 JLINK_WriteReg(R4, 0x00000000)  returns 0x00 (0000ms, 1491ms total)
T265C 551:829 JLINK_WriteReg(R5, 0x00000000)  returns 0x00 (0000ms, 1491ms total)
T265C 551:829 JLINK_WriteReg(R6, 0x00000000)  returns 0x00 (0000ms, 1491ms total)
T265C 551:829 JLINK_WriteReg(R7, 0x00000000)  returns 0x00 (0000ms, 1491ms total)
T265C 551:829 JLINK_WriteReg(R8, 0x00000000)  returns 0x00 (0000ms, 1491ms total)
T265C 551:829 JLINK_WriteReg(R9, 0x20000388)  returns 0x00 (0000ms, 1491ms total)
T265C 551:829 JLINK_WriteReg(R10, 0x00000000)  returns 0x00 (0000ms, 1491ms total)
T265C 551:829 JLINK_WriteReg(R11, 0x00000000)  returns 0x00 (0000ms, 1491ms total)
T265C 551:829 JLINK_WriteReg(R12, 0x00000000)  returns 0x00 (0000ms, 1491ms total)
T265C 551:829 JLINK_WriteReg(R13 (SP), 0x20001000)  returns 0x00 (0000ms, 1491ms total)
T265C 551:829 JLINK_WriteReg(R14, 0x20000001)  returns 0x00 (0000ms, 1491ms total)
T265C 551:829 JLINK_WriteReg(R15 (PC), 0x2000011C)  returns 0x00 (0000ms, 1491ms total)
T265C 551:829 JLINK_WriteReg(XPSR, 0x01000000)  returns 0x00 (0000ms, 1491ms total)
T265C 551:829 JLINK_WriteReg(MSP, 0x20001000)  returns 0x00 (0000ms, 1491ms total)
T265C 551:829 JLINK_WriteReg(PSP, 0x20001000)  returns 0x00 (0000ms, 1491ms total)
T265C 551:829 JLINK_WriteReg(CFBP, 0x00000000)  returns 0x00 (0000ms, 1491ms total)
T265C 551:829 JLINK_SetBPEx(Addr = 0x20000000, Type = 0xFFFFFFF2)  returns 0x00000005 (0000ms, 1491ms total)
T265C 551:829 JLINK_Go() -- CPU_ReadMem(4 bytes @ 0xE0001000) -- CPU_WriteMem(4 bytes @ 0xE0001000) (0002ms, 1493ms total)
T265C 551:831 JLINK_IsHalted()  returns FALSE (0000ms, 1493ms total)
T265C 551:835 JLINK_IsHalted() -- CPU_ReadMem(2 bytes @ 0x20000000)  returns TRUE (0002ms, 1495ms total)
T265C 551:837 JLINK_ReadReg(R15 (PC))  returns 0x20000000 (0000ms, 1493ms total)
T265C 551:837 JLINK_ClrBPEx(BPHandle = 0x00000005)  returns 0x00 (0000ms, 1493ms total)
T265C 551:837 JLINK_ReadReg(R0)  returns 0x00000000 (0000ms, 1493ms total)
T265C 551:837 JLINK_WriteReg(R0, 0x00000400)  returns 0x00 (0000ms, 1493ms total)
T265C 551:837 JLINK_WriteReg(R1, 0x00000200)  returns 0x00 (0000ms, 1493ms total)
T265C 551:837 JLINK_WriteReg(R2, 0x000000FF)  returns 0x00 (0000ms, 1493ms total)
T265C 551:837 JLINK_WriteReg(R3, 0x00000000)  returns 0x00 (0000ms, 1493ms total)
T265C 551:837 JLINK_WriteReg(R4, 0x00000000)  returns 0x00 (0000ms, 1493ms total)
T265C 551:837 JLINK_WriteReg(R5, 0x00000000)  returns 0x00 (0000ms, 1493ms total)
T265C 551:837 JLINK_WriteReg(R6, 0x00000000)  returns 0x00 (0000ms, 1493ms total)
T265C 551:837 JLINK_WriteReg(R7, 0x00000000)  returns 0x00 (0000ms, 1493ms total)
T265C 551:837 JLINK_WriteReg(R8, 0x00000000)  returns 0x00 (0000ms, 1493ms total)
T265C 551:837 JLINK_WriteReg(R9, 0x20000388)  returns 0x00 (0000ms, 1493ms total)
T265C 551:837 JLINK_WriteReg(R10, 0x00000000)  returns 0x00 (0000ms, 1493ms total)
T265C 551:837 JLINK_WriteReg(R11, 0x00000000)  returns 0x00 (0000ms, 1493ms total)
T265C 551:837 JLINK_WriteReg(R12, 0x00000000)  returns 0x00 (0000ms, 1493ms total)
T265C 551:837 JLINK_WriteReg(R13 (SP), 0x20001000)  returns 0x00 (0000ms, 1493ms total)
T265C 551:837 JLINK_WriteReg(R14, 0x20000001)  returns 0x00 (0000ms, 1493ms total)
T265C 551:837 JLINK_WriteReg(R15 (PC), 0x20000020)  returns 0x00 (0000ms, 1493ms total)
T265C 551:837 JLINK_WriteReg(XPSR, 0x01000000)  returns 0x00 (0000ms, 1493ms total)
T265C 551:837 JLINK_WriteReg(MSP, 0x20001000)  returns 0x00 (0000ms, 1493ms total)
T265C 551:837 JLINK_WriteReg(PSP, 0x20001000)  returns 0x00 (0000ms, 1493ms total)
T265C 551:837 JLINK_WriteReg(CFBP, 0x00000000)  returns 0x00 (0000ms, 1493ms total)
T265C 551:837 JLINK_SetBPEx(Addr = 0x20000000, Type = 0xFFFFFFF2)  returns 0x00000006 (0000ms, 1493ms total)
T265C 551:837 JLINK_Go() -- CPU_ReadMem(4 bytes @ 0xE0001000) -- CPU_WriteMem(4 bytes @ 0xE0001000) (0002ms, 1495ms total)
T265C 551:839 JLINK_IsHalted() -- CPU_ReadMem(2 bytes @ 0x20000000)  returns TRUE (0002ms, 1497ms total)
T265C 551:841 JLINK_ReadReg(R15 (PC))  returns 0x20000000 (0000ms, 1495ms total)
T265C 551:841 JLINK_ClrBPEx(BPHandle = 0x00000006)  returns 0x00 (0000ms, 1495ms total)
T265C 551:841 JLINK_ReadReg(R0)  returns 0x00000001 (0000ms, 1495ms total)
T265C 551:841 JLINK_WriteReg(R0, 0x00000400)  returns 0x00 (0000ms, 1495ms total)
T265C 551:841 JLINK_WriteReg(R1, 0x00000200)  returns 0x00 (0000ms, 1495ms total)
T265C 551:841 JLINK_WriteReg(R2, 0x000000FF)  returns 0x00 (0000ms, 1495ms total)
T265C 551:841 JLINK_WriteReg(R3, 0x00000000)  returns 0x00 (0000ms, 1495ms total)
T265C 551:841 JLINK_WriteReg(R4, 0x00000000)  returns 0x00 (0000ms, 1495ms total)
T265C 551:841 JLINK_WriteReg(R5, 0x00000000)  returns 0x00 (0000ms, 1495ms total)
T265C 551:841 JLINK_WriteReg(R6, 0x00000000)  returns 0x00 (0000ms, 1495ms total)
T265C 551:841 JLINK_WriteReg(R7, 0x00000000)  returns 0x00 (0000ms, 1495ms total)
T265C 551:841 JLINK_WriteReg(R8, 0x00000000)  returns 0x00 (0000ms, 1495ms total)
T265C 551:841 JLINK_WriteReg(R9, 0x20000388)  returns 0x00 (0000ms, 1495ms total)
T265C 551:841 JLINK_WriteReg(R10, 0x00000000)  returns 0x00 (0000ms, 1495ms total)
T265C 551:841 JLINK_WriteReg(R11, 0x00000000)  returns 0x00 (0000ms, 1495ms total)
T265C 551:841 JLINK_WriteReg(R12, 0x00000000)  returns 0x00 (0000ms, 1495ms total)
T265C 551:841 JLINK_WriteReg(R13 (SP), 0x20001000)  returns 0x00 (0000ms, 1495ms total)
T265C 551:841 JLINK_WriteReg(R14, 0x20000001)  returns 0x00 (0000ms, 1495ms total)
T265C 551:841 JLINK_WriteReg(R15 (PC), 0x2000011C)  returns 0x00 (0000ms, 1495ms total)
T265C 551:841 JLINK_WriteReg(XPSR, 0x01000000)  returns 0x00 (0000ms, 1495ms total)
T265C 551:841 JLINK_WriteReg(MSP, 0x20001000)  returns 0x00 (0000ms, 1495ms total)
T265C 551:841 JLINK_WriteReg(PSP, 0x20001000)  returns 0x00 (0000ms, 1495ms total)
T265C 551:841 JLINK_WriteReg(CFBP, 0x00000000)  returns 0x00 (0000ms, 1495ms total)
T265C 551:841 JLINK_SetBPEx(Addr = 0x20000000, Type = 0xFFFFFFF2)  returns 0x00000007 (0000ms, 1495ms total)
T265C 551:841 JLINK_Go() -- CPU_ReadMem(4 bytes @ 0xE0001000) -- CPU_WriteMem(4 bytes @ 0xE0001000) (0002ms, 1497ms total)
T265C 551:843 JLINK_IsHalted()  returns FALSE (0000ms, 1497ms total)
T265C 551:849 JLINK_IsHalted() -- CPU_ReadMem(2 bytes @ 0x20000000)  returns TRUE (0001ms, 1498ms total)
T265C 551:850 JLINK_ReadReg(R15 (PC))  returns 0x20000000 (0000ms, 1497ms total)
T265C 551:850 JLINK_ClrBPEx(BPHandle = 0x00000007)  returns 0x00 (0000ms, 1497ms total)
T265C 551:850 JLINK_ReadReg(R0)  returns 0x00000000 (0000ms, 1497ms total)
T265C 551:851 JLINK_WriteReg(R0, 0x00000600)  returns 0x00 (0000ms, 1497ms total)
T265C 551:851 JLINK_WriteReg(R1, 0x00000200)  returns 0x00 (0000ms, 1497ms total)
T265C 551:851 JLINK_WriteReg(R2, 0x000000FF)  returns 0x00 (0000ms, 1497ms total)
T265C 551:851 JLINK_WriteReg(R3, 0x00000000)  returns 0x00 (0000ms, 1497ms total)
T265C 551:851 JLINK_WriteReg(R4, 0x00000000)  returns 0x00 (0000ms, 1497ms total)
T265C 551:851 JLINK_WriteReg(R5, 0x00000000)  returns 0x00 (0000ms, 1497ms total)
T265C 551:851 JLINK_WriteReg(R6, 0x00000000)  returns 0x00 (0000ms, 1497ms total)
T265C 551:851 JLINK_WriteReg(R7, 0x00000000)  returns 0x00 (0000ms, 1497ms total)
T265C 551:851 JLINK_WriteReg(R8, 0x00000000)  returns 0x00 (0000ms, 1497ms total)
T265C 551:851 JLINK_WriteReg(R9, 0x20000388)  returns 0x00 (0000ms, 1497ms total)
T265C 551:851 JLINK_WriteReg(R10, 0x00000000)  returns 0x00 (0000ms, 1497ms total)
T265C 551:851 JLINK_WriteReg(R11, 0x00000000)  returns 0x00 (0000ms, 1497ms total)
T265C 551:851 JLINK_WriteReg(R12, 0x00000000)  returns 0x00 (0000ms, 1497ms total)
T265C 551:851 JLINK_WriteReg(R13 (SP), 0x20001000)  returns 0x00 (0000ms, 1497ms total)
T265C 551:851 JLINK_WriteReg(R14, 0x20000001)  returns 0x00 (0000ms, 1497ms total)
T265C 551:851 JLINK_WriteReg(R15 (PC), 0x20000020)  returns 0x00 (0000ms, 1497ms total)
T265C 551:851 JLINK_WriteReg(XPSR, 0x01000000)  returns 0x00 (0000ms, 1497ms total)
T265C 551:851 JLINK_WriteReg(MSP, 0x20001000)  returns 0x00 (0000ms, 1497ms total)
T265C 551:851 JLINK_WriteReg(PSP, 0x20001000)  returns 0x00 (0000ms, 1497ms total)
T265C 551:851 JLINK_WriteReg(CFBP, 0x00000000)  returns 0x00 (0000ms, 1497ms total)
T265C 551:851 JLINK_SetBPEx(Addr = 0x20000000, Type = 0xFFFFFFF2)  returns 0x00000008 (0000ms, 1497ms total)
T265C 551:851 JLINK_Go() -- CPU_ReadMem(4 bytes @ 0xE0001000) -- CPU_WriteMem(4 bytes @ 0xE0001000) (0002ms, 1499ms total)
T265C 551:853 JLINK_IsHalted() -- CPU_ReadMem(2 bytes @ 0x20000000)  returns TRUE (0002ms, 1501ms total)
T265C 551:855 JLINK_ReadReg(R15 (PC))  returns 0x20000000 (0000ms, 1499ms total)
T265C 551:855 JLINK_ClrBPEx(BPHandle = 0x00000008)  returns 0x00 (0000ms, 1499ms total)
T265C 551:855 JLINK_ReadReg(R0)  returns 0x00000001 (0000ms, 1499ms total)
T265C 551:855 JLINK_WriteReg(R0, 0x00000600)  returns 0x00 (0000ms, 1499ms total)
T265C 551:855 JLINK_WriteReg(R1, 0x00000200)  returns 0x00 (0000ms, 1499ms total)
T265C 551:855 JLINK_WriteReg(R2, 0x000000FF)  returns 0x00 (0000ms, 1499ms total)
T265C 551:855 JLINK_WriteReg(R3, 0x00000000)  returns 0x00 (0000ms, 1499ms total)
T265C 551:855 JLINK_WriteReg(R4, 0x00000000)  returns 0x00 (0000ms, 1499ms total)
T265C 551:855 JLINK_WriteReg(R5, 0x00000000)  returns 0x00 (0000ms, 1499ms total)
T265C 551:855 JLINK_WriteReg(R6, 0x00000000)  returns 0x00 (0000ms, 1499ms total)
T265C 551:855 JLINK_WriteReg(R7, 0x00000000)  returns 0x00 (0000ms, 1499ms total)
T265C 551:855 JLINK_WriteReg(R8, 0x00000000)  returns 0x00 (0000ms, 1499ms total)
T265C 551:855 JLINK_WriteReg(R9, 0x20000388)  returns 0x00 (0000ms, 1499ms total)
T265C 551:855 JLINK_WriteReg(R10, 0x00000000)  returns 0x00 (0000ms, 1499ms total)
T265C 551:855 JLINK_WriteReg(R11, 0x00000000)  returns 0x00 (0000ms, 1499ms total)
T265C 551:855 JLINK_WriteReg(R12, 0x00000000)  returns 0x00 (0000ms, 1499ms total)
T265C 551:855 JLINK_WriteReg(R13 (SP), 0x20001000)  returns 0x00 (0000ms, 1499ms total)
T265C 551:855 JLINK_WriteReg(R14, 0x20000001)  returns 0x00 (0000ms, 1499ms total)
T265C 551:855 JLINK_WriteReg(R15 (PC), 0x2000011C)  returns 0x00 (0000ms, 1499ms total)
T265C 551:855 JLINK_WriteReg(XPSR, 0x01000000)  returns 0x00 (0000ms, 1499ms total)
T265C 551:855 JLINK_WriteReg(MSP, 0x20001000)  returns 0x00 (0000ms, 1499ms total)
T265C 551:855 JLINK_WriteReg(PSP, 0x20001000)  returns 0x00 (0000ms, 1499ms total)
T265C 551:855 JLINK_WriteReg(CFBP, 0x00000000)  returns 0x00 (0000ms, 1499ms total)
T265C 551:855 JLINK_SetBPEx(Addr = 0x20000000, Type = 0xFFFFFFF2)  returns 0x00000009 (0000ms, 1499ms total)
T265C 551:855 JLINK_Go() -- CPU_ReadMem(4 bytes @ 0xE0001000) -- CPU_WriteMem(4 bytes @ 0xE0001000) (0002ms, 1501ms total)
T265C 551:857 JLINK_IsHalted()  returns FALSE (0000ms, 1501ms total)
T265C 551:861 JLINK_IsHalted() -- CPU_ReadMem(2 bytes @ 0x20000000)  returns TRUE (0001ms, 1502ms total)
T265C 551:862 JLINK_ReadReg(R15 (PC))  returns 0x20000000 (0000ms, 1501ms total)
T265C 551:862 JLINK_ClrBPEx(BPHandle = 0x00000009)  returns 0x00 (0000ms, 1501ms total)
T265C 551:862 JLINK_ReadReg(R0)  returns 0x00000000 (0000ms, 1501ms total)
T265C 551:862 JLINK_WriteReg(R0, 0x00000800)  returns 0x00 (0000ms, 1501ms total)
T265C 551:862 JLINK_WriteReg(R1, 0x00000200)  returns 0x00 (0000ms, 1501ms total)
T265C 551:862 JLINK_WriteReg(R2, 0x000000FF)  returns 0x00 (0000ms, 1501ms total)
T265C 551:862 JLINK_WriteReg(R3, 0x00000000)  returns 0x00 (0000ms, 1501ms total)
T265C 551:862 JLINK_WriteReg(R4, 0x00000000)  returns 0x00 (0000ms, 1501ms total)
T265C 551:862 JLINK_WriteReg(R5, 0x00000000)  returns 0x00 (0000ms, 1501ms total)
T265C 551:862 JLINK_WriteReg(R6, 0x00000000)  returns 0x00 (0000ms, 1501ms total)
T265C 551:862 JLINK_WriteReg(R7, 0x00000000)  returns 0x00 (0000ms, 1501ms total)
T265C 551:862 JLINK_WriteReg(R8, 0x00000000)  returns 0x00 (0000ms, 1501ms total)
T265C 551:862 JLINK_WriteReg(R9, 0x20000388)  returns 0x00 (0000ms, 1501ms total)
T265C 551:862 JLINK_WriteReg(R10, 0x00000000)  returns 0x00 (0000ms, 1501ms total)
T265C 551:862 JLINK_WriteReg(R11, 0x00000000)  returns 0x00 (0000ms, 1501ms total)
T265C 551:862 JLINK_WriteReg(R12, 0x00000000)  returns 0x00 (0000ms, 1501ms total)
T265C 551:862 JLINK_WriteReg(R13 (SP), 0x20001000)  returns 0x00 (0000ms, 1501ms total)
T265C 551:862 JLINK_WriteReg(R14, 0x20000001)  returns 0x00 (0000ms, 1501ms total)
T265C 551:862 JLINK_WriteReg(R15 (PC), 0x20000020)  returns 0x00 (0000ms, 1501ms total)
T265C 551:862 JLINK_WriteReg(XPSR, 0x01000000)  returns 0x00 (0000ms, 1501ms total)
T265C 551:862 JLINK_WriteReg(MSP, 0x20001000)  returns 0x00 (0000ms, 1501ms total)
T265C 551:862 JLINK_WriteReg(PSP, 0x20001000)  returns 0x00 (0000ms, 1501ms total)
T265C 551:862 JLINK_WriteReg(CFBP, 0x00000000)  returns 0x00 (0000ms, 1501ms total)
T265C 551:862 JLINK_SetBPEx(Addr = 0x20000000, Type = 0xFFFFFFF2)  returns 0x0000000A (0000ms, 1501ms total)
T265C 551:862 JLINK_Go() -- CPU_ReadMem(4 bytes @ 0xE0001000) -- CPU_WriteMem(4 bytes @ 0xE0001000) (0003ms, 1504ms total)
T265C 551:865 JLINK_IsHalted() -- CPU_ReadMem(2 bytes @ 0x20000000)  returns TRUE (0002ms, 1506ms total)
T265C 551:867 JLINK_ReadReg(R15 (PC))  returns 0x20000000 (0000ms, 1504ms total)
T265C 551:867 JLINK_ClrBPEx(BPHandle = 0x0000000A)  returns 0x00 (0000ms, 1504ms total)
T265C 551:867 JLINK_ReadReg(R0)  returns 0x00000001 (0000ms, 1504ms total)
T265C 551:867 JLINK_WriteReg(R0, 0x00000800)  returns 0x00 (0000ms, 1504ms total)
T265C 551:867 JLINK_WriteReg(R1, 0x00000200)  returns 0x00 (0000ms, 1504ms total)
T265C 551:867 JLINK_WriteReg(R2, 0x000000FF)  returns 0x00 (0000ms, 1504ms total)
T265C 551:867 JLINK_WriteReg(R3, 0x00000000)  returns 0x00 (0000ms, 1504ms total)
T265C 551:867 JLINK_WriteReg(R4, 0x00000000)  returns 0x00 (0000ms, 1504ms total)
T265C 551:867 JLINK_WriteReg(R5, 0x00000000)  returns 0x00 (0000ms, 1504ms total)
T265C 551:867 JLINK_WriteReg(R6, 0x00000000)  returns 0x00 (0000ms, 1504ms total)
T265C 551:867 JLINK_WriteReg(R7, 0x00000000)  returns 0x00 (0000ms, 1504ms total)
T265C 551:867 JLINK_WriteReg(R8, 0x00000000)  returns 0x00 (0000ms, 1504ms total)
T265C 551:867 JLINK_WriteReg(R9, 0x20000388)  returns 0x00 (0000ms, 1504ms total)
T265C 551:867 JLINK_WriteReg(R10, 0x00000000)  returns 0x00 (0000ms, 1504ms total)
T265C 551:867 JLINK_WriteReg(R11, 0x00000000)  returns 0x00 (0000ms, 1504ms total)
T265C 551:867 JLINK_WriteReg(R12, 0x00000000)  returns 0x00 (0000ms, 1504ms total)
T265C 551:867 JLINK_WriteReg(R13 (SP), 0x20001000)  returns 0x00 (0000ms, 1504ms total)
T265C 551:867 JLINK_WriteReg(R14, 0x20000001)  returns 0x00 (0000ms, 1504ms total)
T265C 551:867 JLINK_WriteReg(R15 (PC), 0x2000011C)  returns 0x00 (0000ms, 1504ms total)
T265C 551:867 JLINK_WriteReg(XPSR, 0x01000000)  returns 0x00 (0000ms, 1504ms total)
T265C 551:867 JLINK_WriteReg(MSP, 0x20001000)  returns 0x00 (0000ms, 1504ms total)
T265C 551:867 JLINK_WriteReg(PSP, 0x20001000)  returns 0x00 (0000ms, 1504ms total)
T265C 551:867 JLINK_WriteReg(CFBP, 0x00000000)  returns 0x00 (0000ms, 1504ms total)
T265C 551:867 JLINK_SetBPEx(Addr = 0x20000000, Type = 0xFFFFFFF2)  returns 0x0000000B (0000ms, 1504ms total)
T265C 551:867 JLINK_Go() -- CPU_ReadMem(4 bytes @ 0xE0001000) -- CPU_WriteMem(4 bytes @ 0xE0001000) (0002ms, 1506ms total)
T265C 551:869 JLINK_IsHalted()  returns FALSE (0000ms, 1506ms total)
T265C 551:873 JLINK_IsHalted() -- CPU_ReadMem(2 bytes @ 0x20000000)  returns TRUE (0000ms, 1506ms total)
T265C 551:873 JLINK_ReadReg(R15 (PC))  returns 0x20000000 (0000ms, 1506ms total)
T265C 551:873 JLINK_ClrBPEx(BPHandle = 0x0000000B)  returns 0x00 (0000ms, 1506ms total)
T265C 551:873 JLINK_ReadReg(R0)  returns 0x00000000 (0000ms, 1506ms total)
T265C 551:874 JLINK_WriteReg(R0, 0x00000A00)  returns 0x00 (0000ms, 1506ms total)
T265C 551:874 JLINK_WriteReg(R1, 0x00000200)  returns 0x00 (0000ms, 1506ms total)
T265C 551:874 JLINK_WriteReg(R2, 0x000000FF)  returns 0x00 (0000ms, 1506ms total)
T265C 551:874 JLINK_WriteReg(R3, 0x00000000)  returns 0x00 (0000ms, 1506ms total)
T265C 551:874 JLINK_WriteReg(R4, 0x00000000)  returns 0x00 (0000ms, 1506ms total)
T265C 551:874 JLINK_WriteReg(R5, 0x00000000)  returns 0x00 (0000ms, 1506ms total)
T265C 551:874 JLINK_WriteReg(R6, 0x00000000)  returns 0x00 (0000ms, 1506ms total)
T265C 551:874 JLINK_WriteReg(R7, 0x00000000)  returns 0x00 (0000ms, 1506ms total)
T265C 551:874 JLINK_WriteReg(R8, 0x00000000)  returns 0x00 (0000ms, 1506ms total)
T265C 551:874 JLINK_WriteReg(R9, 0x20000388)  returns 0x00 (0000ms, 1506ms total)
T265C 551:874 JLINK_WriteReg(R10, 0x00000000)  returns 0x00 (0000ms, 1506ms total)
T265C 551:874 JLINK_WriteReg(R11, 0x00000000)  returns 0x00 (0000ms, 1506ms total)
T265C 551:874 JLINK_WriteReg(R12, 0x00000000)  returns 0x00 (0000ms, 1506ms total)
T265C 551:874 JLINK_WriteReg(R13 (SP), 0x20001000)  returns 0x00 (0000ms, 1506ms total)
T265C 551:874 JLINK_WriteReg(R14, 0x20000001)  returns 0x00 (0000ms, 1506ms total)
T265C 551:874 JLINK_WriteReg(R15 (PC), 0x20000020)  returns 0x00 (0000ms, 1506ms total)
T265C 551:874 JLINK_WriteReg(XPSR, 0x01000000)  returns 0x00 (0000ms, 1506ms total)
T265C 551:874 JLINK_WriteReg(MSP, 0x20001000)  returns 0x00 (0000ms, 1506ms total)
T265C 551:874 JLINK_WriteReg(PSP, 0x20001000)  returns 0x00 (0000ms, 1506ms total)
T265C 551:874 JLINK_WriteReg(CFBP, 0x00000000)  returns 0x00 (0000ms, 1506ms total)
T265C 551:874 JLINK_SetBPEx(Addr = 0x20000000, Type = 0xFFFFFFF2)  returns 0x0000000C (0000ms, 1506ms total)
T265C 551:874 JLINK_Go() -- CPU_ReadMem(4 bytes @ 0xE0001000) -- CPU_WriteMem(4 bytes @ 0xE0001000) (0003ms, 1509ms total)
T265C 551:877 JLINK_IsHalted() -- CPU_ReadMem(2 bytes @ 0x20000000)  returns TRUE (0001ms, 1510ms total)
T265C 551:878 JLINK_ReadReg(R15 (PC))  returns 0x20000000 (0000ms, 1509ms total)
T265C 551:878 JLINK_ClrBPEx(BPHandle = 0x0000000C)  returns 0x00 (0000ms, 1509ms total)
T265C 551:878 JLINK_ReadReg(R0)  returns 0x00000001 (0000ms, 1509ms total)
T265C 551:878 JLINK_WriteReg(R0, 0x00000A00)  returns 0x00 (0000ms, 1509ms total)
T265C 551:878 JLINK_WriteReg(R1, 0x00000200)  returns 0x00 (0000ms, 1509ms total)
T265C 551:879 JLINK_WriteReg(R2, 0x000000FF)  returns 0x00 (0000ms, 1510ms total)
T265C 551:879 JLINK_WriteReg(R3, 0x00000000)  returns 0x00 (0000ms, 1510ms total)
T265C 551:879 JLINK_WriteReg(R4, 0x00000000)  returns 0x00 (0000ms, 1510ms total)
T265C 551:879 JLINK_WriteReg(R5, 0x00000000)  returns 0x00 (0000ms, 1510ms total)
T265C 551:879 JLINK_WriteReg(R6, 0x00000000)  returns 0x00 (0000ms, 1510ms total)
T265C 551:879 JLINK_WriteReg(R7, 0x00000000)  returns 0x00 (0000ms, 1510ms total)
T265C 551:879 JLINK_WriteReg(R8, 0x00000000)  returns 0x00 (0000ms, 1510ms total)
T265C 551:879 JLINK_WriteReg(R9, 0x20000388)  returns 0x00 (0000ms, 1510ms total)
T265C 551:879 JLINK_WriteReg(R10, 0x00000000)  returns 0x00 (0000ms, 1510ms total)
T265C 551:879 JLINK_WriteReg(R11, 0x00000000)  returns 0x00 (0000ms, 1510ms total)
T265C 551:879 JLINK_WriteReg(R12, 0x00000000)  returns 0x00 (0000ms, 1510ms total)
T265C 551:879 JLINK_WriteReg(R13 (SP), 0x20001000)  returns 0x00 (0000ms, 1510ms total)
T265C 551:879 JLINK_WriteReg(R14, 0x20000001)  returns 0x00 (0000ms, 1510ms total)
T265C 551:879 JLINK_WriteReg(R15 (PC), 0x2000011C)  returns 0x00 (0000ms, 1510ms total)
T265C 551:879 JLINK_WriteReg(XPSR, 0x01000000)  returns 0x00 (0000ms, 1510ms total)
T265C 551:879 JLINK_WriteReg(MSP, 0x20001000)  returns 0x00 (0000ms, 1510ms total)
T265C 551:879 JLINK_WriteReg(PSP, 0x20001000)  returns 0x00 (0000ms, 1510ms total)
T265C 551:879 JLINK_WriteReg(CFBP, 0x00000000)  returns 0x00 (0000ms, 1510ms total)
T265C 551:879 JLINK_SetBPEx(Addr = 0x20000000, Type = 0xFFFFFFF2)  returns 0x0000000D (0000ms, 1510ms total)
T265C 551:879 JLINK_Go() -- CPU_ReadMem(4 bytes @ 0xE0001000) -- CPU_WriteMem(4 bytes @ 0xE0001000) (0002ms, 1512ms total)
T265C 551:881 JLINK_IsHalted()  returns FALSE (0000ms, 1512ms total)
T265C 551:885 JLINK_IsHalted() -- CPU_ReadMem(2 bytes @ 0x20000000)  returns TRUE (0002ms, 1514ms total)
T265C 551:887 JLINK_ReadReg(R15 (PC))  returns 0x20000000 (0000ms, 1512ms total)
T265C 551:887 JLINK_ClrBPEx(BPHandle = 0x0000000D)  returns 0x00 (0000ms, 1512ms total)
T265C 551:887 JLINK_ReadReg(R0)  returns 0x00000000 (0000ms, 1512ms total)
T265C 551:887 JLINK_WriteReg(R0, 0x00000C00)  returns 0x00 (0000ms, 1512ms total)
T265C 551:887 JLINK_WriteReg(R1, 0x00000200)  returns 0x00 (0000ms, 1512ms total)
T265C 551:887 JLINK_WriteReg(R2, 0x000000FF)  returns 0x00 (0000ms, 1512ms total)
T265C 551:887 JLINK_WriteReg(R3, 0x00000000)  returns 0x00 (0000ms, 1512ms total)
T265C 551:887 JLINK_WriteReg(R4, 0x00000000)  returns 0x00 (0000ms, 1512ms total)
T265C 551:887 JLINK_WriteReg(R5, 0x00000000)  returns 0x00 (0000ms, 1512ms total)
T265C 551:887 JLINK_WriteReg(R6, 0x00000000)  returns 0x00 (0000ms, 1512ms total)
T265C 551:887 JLINK_WriteReg(R7, 0x00000000)  returns 0x00 (0000ms, 1512ms total)
T265C 551:887 JLINK_WriteReg(R8, 0x00000000)  returns 0x00 (0000ms, 1512ms total)
T265C 551:887 JLINK_WriteReg(R9, 0x20000388)  returns 0x00 (0000ms, 1512ms total)
T265C 551:887 JLINK_WriteReg(R10, 0x00000000)  returns 0x00 (0000ms, 1512ms total)
T265C 551:887 JLINK_WriteReg(R11, 0x00000000)  returns 0x00 (0000ms, 1512ms total)
T265C 551:887 JLINK_WriteReg(R12, 0x00000000)  returns 0x00 (0000ms, 1512ms total)
T265C 551:887 JLINK_WriteReg(R13 (SP), 0x20001000)  returns 0x00 (0000ms, 1512ms total)
T265C 551:887 JLINK_WriteReg(R14, 0x20000001)  returns 0x00 (0000ms, 1512ms total)
T265C 551:887 JLINK_WriteReg(R15 (PC), 0x20000020)  returns 0x00 (0000ms, 1512ms total)
T265C 551:887 JLINK_WriteReg(XPSR, 0x01000000)  returns 0x00 (0000ms, 1512ms total)
T265C 551:887 JLINK_WriteReg(MSP, 0x20001000)  returns 0x00 (0000ms, 1512ms total)
T265C 551:887 JLINK_WriteReg(PSP, 0x20001000)  returns 0x00 (0000ms, 1512ms total)
T265C 551:887 JLINK_WriteReg(CFBP, 0x00000000)  returns 0x00 (0000ms, 1512ms total)
T265C 551:887 JLINK_SetBPEx(Addr = 0x20000000, Type = 0xFFFFFFF2)  returns 0x0000000E (0000ms, 1512ms total)
T265C 551:887 JLINK_Go() -- CPU_ReadMem(4 bytes @ 0xE0001000) -- CPU_WriteMem(4 bytes @ 0xE0001000) (0002ms, 1514ms total)
T265C 551:889 JLINK_IsHalted() -- CPU_ReadMem(2 bytes @ 0x20000000)  returns TRUE (0002ms, 1516ms total)
T265C 551:891 JLINK_ReadReg(R15 (PC))  returns 0x20000000 (0000ms, 1514ms total)
T265C 551:891 JLINK_ClrBPEx(BPHandle = 0x0000000E)  returns 0x00 (0000ms, 1514ms total)
T265C 551:891 JLINK_ReadReg(R0)  returns 0x00000001 (0000ms, 1514ms total)
T265C 551:891 JLINK_WriteReg(R0, 0x00000C00)  returns 0x00 (0000ms, 1514ms total)
T265C 551:891 JLINK_WriteReg(R1, 0x00000200)  returns 0x00 (0000ms, 1514ms total)
T265C 551:891 JLINK_WriteReg(R2, 0x000000FF)  returns 0x00 (0000ms, 1514ms total)
T265C 551:891 JLINK_WriteReg(R3, 0x00000000)  returns 0x00 (0000ms, 1514ms total)
T265C 551:891 JLINK_WriteReg(R4, 0x00000000)  returns 0x00 (0000ms, 1514ms total)
T265C 551:891 JLINK_WriteReg(R5, 0x00000000)  returns 0x00 (0000ms, 1514ms total)
T265C 551:891 JLINK_WriteReg(R6, 0x00000000)  returns 0x00 (0000ms, 1514ms total)
T265C 551:891 JLINK_WriteReg(R7, 0x00000000)  returns 0x00 (0000ms, 1514ms total)
T265C 551:891 JLINK_WriteReg(R8, 0x00000000)  returns 0x00 (0000ms, 1514ms total)
T265C 551:891 JLINK_WriteReg(R9, 0x20000388)  returns 0x00 (0000ms, 1514ms total)
T265C 551:891 JLINK_WriteReg(R10, 0x00000000)  returns 0x00 (0000ms, 1514ms total)
T265C 551:891 JLINK_WriteReg(R11, 0x00000000)  returns 0x00 (0000ms, 1514ms total)
T265C 551:891 JLINK_WriteReg(R12, 0x00000000)  returns 0x00 (0000ms, 1514ms total)
T265C 551:891 JLINK_WriteReg(R13 (SP), 0x20001000)  returns 0x00 (0000ms, 1514ms total)
T265C 551:891 JLINK_WriteReg(R14, 0x20000001)  returns 0x00 (0000ms, 1514ms total)
T265C 551:891 JLINK_WriteReg(R15 (PC), 0x2000011C)  returns 0x00 (0000ms, 1514ms total)
T265C 551:891 JLINK_WriteReg(XPSR, 0x01000000)  returns 0x00 (0000ms, 1514ms total)
T265C 551:891 JLINK_WriteReg(MSP, 0x20001000)  returns 0x00 (0000ms, 1514ms total)
T265C 551:891 JLINK_WriteReg(PSP, 0x20001000)  returns 0x00 (0000ms, 1514ms total)
T265C 551:891 JLINK_WriteReg(CFBP, 0x00000000)  returns 0x00 (0000ms, 1514ms total)
T265C 551:891 JLINK_SetBPEx(Addr = 0x20000000, Type = 0xFFFFFFF2)  returns 0x0000000F (0000ms, 1514ms total)
T265C 551:891 JLINK_Go() -- CPU_ReadMem(4 bytes @ 0xE0001000) -- CPU_WriteMem(4 bytes @ 0xE0001000) (0002ms, 1516ms total)
T265C 551:893 JLINK_IsHalted()  returns FALSE (0000ms, 1516ms total)
T265C 551:898 JLINK_IsHalted() -- CPU_ReadMem(2 bytes @ 0x20000000)  returns TRUE (0001ms, 1517ms total)
T265C 551:899 JLINK_ReadReg(R15 (PC))  returns 0x20000000 (0000ms, 1516ms total)
T265C 551:899 JLINK_ClrBPEx(BPHandle = 0x0000000F)  returns 0x00 (0000ms, 1516ms total)
T265C 551:899 JLINK_ReadReg(R0)  returns 0x00000000 (0000ms, 1516ms total)
T265C 551:900 JLINK_WriteReg(R0, 0x00000E00)  returns 0x00 (0000ms, 1516ms total)
T265C 551:900 JLINK_WriteReg(R1, 0x00000200)  returns 0x00 (0000ms, 1516ms total)
T265C 551:900 JLINK_WriteReg(R2, 0x000000FF)  returns 0x00 (0000ms, 1516ms total)
T265C 551:900 JLINK_WriteReg(R3, 0x00000000)  returns 0x00 (0000ms, 1516ms total)
T265C 551:900 JLINK_WriteReg(R4, 0x00000000)  returns 0x00 (0000ms, 1516ms total)
T265C 551:900 JLINK_WriteReg(R5, 0x00000000)  returns 0x00 (0000ms, 1516ms total)
T265C 551:900 JLINK_WriteReg(R6, 0x00000000)  returns 0x00 (0000ms, 1516ms total)
T265C 551:900 JLINK_WriteReg(R7, 0x00000000)  returns 0x00 (0000ms, 1516ms total)
T265C 551:900 JLINK_WriteReg(R8, 0x00000000)  returns 0x00 (0000ms, 1516ms total)
T265C 551:900 JLINK_WriteReg(R9, 0x20000388)  returns 0x00 (0000ms, 1516ms total)
T265C 551:900 JLINK_WriteReg(R10, 0x00000000)  returns 0x00 (0000ms, 1516ms total)
T265C 551:900 JLINK_WriteReg(R11, 0x00000000)  returns 0x00 (0000ms, 1516ms total)
T265C 551:900 JLINK_WriteReg(R12, 0x00000000)  returns 0x00 (0000ms, 1516ms total)
T265C 551:900 JLINK_WriteReg(R13 (SP), 0x20001000)  returns 0x00 (0000ms, 1516ms total)
T265C 551:900 JLINK_WriteReg(R14, 0x20000001)  returns 0x00 (0000ms, 1516ms total)
T265C 551:900 JLINK_WriteReg(R15 (PC), 0x20000020)  returns 0x00 (0000ms, 1516ms total)
T265C 551:900 JLINK_WriteReg(XPSR, 0x01000000)  returns 0x00 (0000ms, 1516ms total)
T265C 551:900 JLINK_WriteReg(MSP, 0x20001000)  returns 0x00 (0000ms, 1516ms total)
T265C 551:900 JLINK_WriteReg(PSP, 0x20001000)  returns 0x00 (0000ms, 1516ms total)
T265C 551:900 JLINK_WriteReg(CFBP, 0x00000000)  returns 0x00 (0000ms, 1516ms total)
T265C 551:900 JLINK_SetBPEx(Addr = 0x20000000, Type = 0xFFFFFFF2)  returns 0x00000010 (0000ms, 1516ms total)
T265C 551:900 JLINK_Go() -- CPU_ReadMem(4 bytes @ 0xE0001000) -- CPU_WriteMem(4 bytes @ 0xE0001000) (0002ms, 1518ms total)
T265C 551:902 JLINK_IsHalted() -- CPU_ReadMem(2 bytes @ 0x20000000)  returns TRUE (0001ms, 1519ms total)
T265C 551:903 JLINK_ReadReg(R15 (PC))  returns 0x20000000 (0000ms, 1518ms total)
T265C 551:903 JLINK_ClrBPEx(BPHandle = 0x00000010)  returns 0x00 (0000ms, 1518ms total)
T265C 551:903 JLINK_ReadReg(R0)  returns 0x00000001 (0000ms, 1518ms total)
T265C 551:903 JLINK_WriteReg(R0, 0x00000E00)  returns 0x00 (0000ms, 1518ms total)
T265C 551:903 JLINK_WriteReg(R1, 0x00000200)  returns 0x00 (0000ms, 1518ms total)
T265C 551:903 JLINK_WriteReg(R2, 0x000000FF)  returns 0x00 (0000ms, 1518ms total)
T265C 551:903 JLINK_WriteReg(R3, 0x00000000)  returns 0x00 (0000ms, 1518ms total)
T265C 551:903 JLINK_WriteReg(R4, 0x00000000)  returns 0x00 (0000ms, 1518ms total)
T265C 551:903 JLINK_WriteReg(R5, 0x00000000)  returns 0x00 (0000ms, 1518ms total)
T265C 551:903 JLINK_WriteReg(R6, 0x00000000)  returns 0x00 (0000ms, 1518ms total)
T265C 551:903 JLINK_WriteReg(R7, 0x00000000)  returns 0x00 (0000ms, 1518ms total)
T265C 551:903 JLINK_WriteReg(R8, 0x00000000)  returns 0x00 (0000ms, 1518ms total)
T265C 551:903 JLINK_WriteReg(R9, 0x20000388)  returns 0x00 (0000ms, 1518ms total)
T265C 551:903 JLINK_WriteReg(R10, 0x00000000)  returns 0x00 (0000ms, 1518ms total)
T265C 551:903 JLINK_WriteReg(R11, 0x00000000)  returns 0x00 (0000ms, 1518ms total)
T265C 551:903 JLINK_WriteReg(R12, 0x00000000)  returns 0x00 (0001ms, 1519ms total)
T265C 551:904 JLINK_WriteReg(R13 (SP), 0x20001000)  returns 0x00 (0000ms, 1519ms total)
T265C 551:904 JLINK_WriteReg(R14, 0x20000001)  returns 0x00 (0000ms, 1519ms total)
T265C 551:904 JLINK_WriteReg(R15 (PC), 0x2000011C)  returns 0x00 (0000ms, 1519ms total)
T265C 551:904 JLINK_WriteReg(XPSR, 0x01000000)  returns 0x00 (0000ms, 1519ms total)
T265C 551:904 JLINK_WriteReg(MSP, 0x20001000)  returns 0x00 (0000ms, 1519ms total)
T265C 551:904 JLINK_WriteReg(PSP, 0x20001000)  returns 0x00 (0000ms, 1519ms total)
T265C 551:904 JLINK_WriteReg(CFBP, 0x00000000)  returns 0x00 (0000ms, 1519ms total)
T265C 551:904 JLINK_SetBPEx(Addr = 0x20000000, Type = 0xFFFFFFF2)  returns 0x00000011 (0000ms, 1519ms total)
T265C 551:904 JLINK_Go() -- CPU_ReadMem(4 bytes @ 0xE0001000) -- CPU_WriteMem(4 bytes @ 0xE0001000) (0002ms, 1521ms total)
T265C 551:906 JLINK_IsHalted()  returns FALSE (0000ms, 1521ms total)
T265C 551:909 JLINK_IsHalted() -- CPU_ReadMem(2 bytes @ 0x20000000)  returns TRUE (0002ms, 1523ms total)
T265C 551:911 JLINK_ReadReg(R15 (PC))  returns 0x20000000 (0000ms, 1521ms total)
T265C 551:911 JLINK_ClrBPEx(BPHandle = 0x00000011)  returns 0x00 (0000ms, 1521ms total)
T265C 551:911 JLINK_ReadReg(R0)  returns 0x00000000 (0000ms, 1521ms total)
T265C 551:911 JLINK_WriteReg(R0, 0x00001000)  returns 0x00 (0000ms, 1521ms total)
T265C 551:911 JLINK_WriteReg(R1, 0x00000200)  returns 0x00 (0000ms, 1521ms total)
T265C 551:911 JLINK_WriteReg(R2, 0x000000FF)  returns 0x00 (0000ms, 1521ms total)
T265C 551:911 JLINK_WriteReg(R3, 0x00000000)  returns 0x00 (0000ms, 1521ms total)
T265C 551:911 JLINK_WriteReg(R4, 0x00000000)  returns 0x00 (0000ms, 1521ms total)
T265C 551:911 JLINK_WriteReg(R5, 0x00000000)  returns 0x00 (0000ms, 1521ms total)
T265C 551:911 JLINK_WriteReg(R6, 0x00000000)  returns 0x00 (0000ms, 1521ms total)
T265C 551:911 JLINK_WriteReg(R7, 0x00000000)  returns 0x00 (0000ms, 1521ms total)
T265C 551:911 JLINK_WriteReg(R8, 0x00000000)  returns 0x00 (0000ms, 1521ms total)
T265C 551:911 JLINK_WriteReg(R9, 0x20000388)  returns 0x00 (0000ms, 1521ms total)
T265C 551:911 JLINK_WriteReg(R10, 0x00000000)  returns 0x00 (0000ms, 1521ms total)
T265C 551:911 JLINK_WriteReg(R11, 0x00000000)  returns 0x00 (0000ms, 1521ms total)
T265C 551:911 JLINK_WriteReg(R12, 0x00000000)  returns 0x00 (0000ms, 1521ms total)
T265C 551:911 JLINK_WriteReg(R13 (SP), 0x20001000)  returns 0x00 (0000ms, 1521ms total)
T265C 551:911 JLINK_WriteReg(R14, 0x20000001)  returns 0x00 (0000ms, 1521ms total)
T265C 551:911 JLINK_WriteReg(R15 (PC), 0x20000020)  returns 0x00 (0000ms, 1521ms total)
T265C 551:911 JLINK_WriteReg(XPSR, 0x01000000)  returns 0x00 (0000ms, 1521ms total)
T265C 551:911 JLINK_WriteReg(MSP, 0x20001000)  returns 0x00 (0000ms, 1521ms total)
T265C 551:911 JLINK_WriteReg(PSP, 0x20001000)  returns 0x00 (0000ms, 1521ms total)
T265C 551:911 JLINK_WriteReg(CFBP, 0x00000000)  returns 0x00 (0000ms, 1521ms total)
T265C 551:911 JLINK_SetBPEx(Addr = 0x20000000, Type = 0xFFFFFFF2)  returns 0x00000012 (0000ms, 1521ms total)
T265C 551:911 JLINK_Go() -- CPU_ReadMem(4 bytes @ 0xE0001000) -- CPU_WriteMem(4 bytes @ 0xE0001000) (0002ms, 1523ms total)
T265C 551:913 JLINK_IsHalted() -- CPU_ReadMem(2 bytes @ 0x20000000)  returns TRUE (0002ms, 1525ms total)
T265C 551:915 JLINK_ReadReg(R15 (PC))  returns 0x20000000 (0000ms, 1523ms total)
T265C 551:915 JLINK_ClrBPEx(BPHandle = 0x00000012)  returns 0x00 (0000ms, 1523ms total)
T265C 551:915 JLINK_ReadReg(R0)  returns 0x00000001 (0000ms, 1523ms total)
T265C 551:915 JLINK_WriteReg(R0, 0x00001000)  returns 0x00 (0000ms, 1523ms total)
T265C 551:915 JLINK_WriteReg(R1, 0x00000200)  returns 0x00 (0000ms, 1523ms total)
T265C 551:915 JLINK_WriteReg(R2, 0x000000FF)  returns 0x00 (0000ms, 1523ms total)
T265C 551:915 JLINK_WriteReg(R3, 0x00000000)  returns 0x00 (0000ms, 1523ms total)
